Essai-1-115%-L2N-Franc - 25,,1999
16,6A,10D
1,V L1-N,,5,V,0.0024770421047181144,-6.4914189579212689e-09,0,-32767,32767,225000,100,S
2,V L2-N,,6,V,0.0024773584552250563,5.1658872735060868e-09,0,-32767,32767,225000,100,S
3,V L3-N,,7,V,0.0024765881500690475,-3.9469654211643501e-09,0,-32767,32767,225000,100,S
4,I L1,,1,A,4.3422980858963582e-05,2.9802382783827852e-11,0,-32767,32767,1500,1,S
5,I L2,,2,A,0.00041229344416373009,-1.7292045621126881,0,-32767,32767,1500,1,S
6,I L3,,3,A,0.0003700798862436182,1.7326702016840372,0,-32767,32767,1500,1,S
1,Dclt A,,,1
2,Dclt B,,,1
3,Dclt C,,,1
4,PX.MR,,,1
5,PX.ZON1,,,1
6,PX.ZON2,,,1
7,PX.STA3,,,1
8,PX.AVAL,,,1
9,PX.AMON,,,1
10,PX.TERRE,,,1
50
1
5000,4401
11/03/2015,10:01:42.964664
11/03/2015,10:01:43.483664
ASCII
1
1,0,-1516,-27589,29114,-3959,1436,-1144,0,0,0,0,0,0,0,0,0,0
2,200,543,-28645,28111,-1909,1311,-1246,0,0,0,0,0,0,0,0,0,0
3,400,2599,-29587,26997,149,1198,-1361,0,0,0,0,0,0,0,0,0,0
4,600,4645,-30413,25776,2206,1096,-1489,0,0,0,0,0,0,0,0,0,0
5,800,6673,-31119,24454,4255,1007,-1630,0,0,0,0,0,0,0,0,0,0
6,1000,8675,-31702,23035,6286,930,-1783,0,0,0,0,0,0,0,0,0,0
7,1200,10642,-32160,21526,8293,866,-1947,0,0,0,0,0,0,0,0,0,0
8,1400,12567,-32491,19931,10267,815,-2122,0,0,0,0,0,0,0,0,0,0
9,1600,14443,-32693,18258,12201,778,-2307,0,0,0,0,0,0,0,0,0,0
10,1800,16261,-32767,16513,14086,754,-2502,0,0,0,0,0,0,0,0,0,0
11,2000,18016,-32711,14702,15916,744,-2705,0,0,0,0,0,0,0,0,0,0
12,2200,19699,-32527,12834,17683,747,-2916,0,0,0,0,0,0,0,0,0,0
13,2400,21305,-32213,10915,19380,764,-3134,0,0,0,0,0,0,0,0,0,0
14,2600,22826,-31773,8953,21001,794,-3358,0,0,0,0,0,0,0,0,0,0
15,2800,24258,-31208,6955,22539,838,-3587,0,0,0,0,0,0,0,0,0,0
16,3000,25594,-30519,4930,23988,895,-3821,0,0,0,0,0,0,0,0,0,0
17,3200,26828,-29710,2886,25342,965,-4058,0,0,0,0,0,0,0,0,0,0
18,3400,27957,-28783,830,26597,1048,-4297,0,0,0,0,0,0,0,0,0,0
19,3600,28976,-27743,-1229,27746,1143,-4538,0,0,0,0,0,0,0,0,0,0
20,3800,29880,-26593,-3284,28786,1250,-4780,0,0,0,0,0,0,0,0,0,0
21,4000,30666,-25339,-5325,29712,1369,-5021,0,0,0,0,0,0,0,0,0,0
22,4200,31331,-23984,-7345,30521,1499,-5261,0,0,0,0,0,0,0,0,0,0
23,4400,31873,-22535,-9336,31209,1640,-5498,0,0,0,0,0,0,0,0,0,0
24,4600,32288,-20997,-11291,31775,1791,-5733,0,0,0,0,0,0,0,0,0,0
25,4800,32577,-19376,-13201,32215,1951,-5963,0,0,0,0,0,0,0,0,0,0
26,5000,32736,-17678,-15058,32527,2120,-6188,0,0,0,0,0,0,0,0,0,0
27,5200,32767,-15911,-16857,32712,2297,-6407,0,0,0,0,0,0,0,0,0,0
28,5400,32668,-14081,-18589,32767,2482,-6619,0,0,0,0,0,0,0,0,0,0
29,5600,32441,-12196,-20247,32693,2674,-6824,0,0,0,0,0,0,0,0,0,0
30,5800,32085,-10262,-21826,32490,2871,-7020,0,0,0,0,0,0,0,0,0,0
31,6000,31603,-8288,-23318,32159,3074,-7207,0,0,0,0,0,0,0,0,0,0
32,6200,30995,-6281,-24718,31701,3281,-7384,0,0,0,0,0,0,0,0,0,0
33,6400,30266,-4249,-26021,31117,3492,-7551,0,0,0,0,0,0,0,0,0,0
34,6600,29417,-2201,-27221,30411,3705,-7706,0,0,0,0,0,0,0,0,0,0
35,6800,28452,-143,-28314,29585,3921,-7849,0,0,0,0,0,0,0,0,0,0
36,7000,27375,1914,-29295,28642,4138,-7980,0,0,0,0,0,0,0,0,0,0
37,7200,26190,3965,-30161,27586,4354,-8097,0,0,0,0,0,0,0,0,0,0
38,7400,24901,5999,-30907,26422,4570,-8201,0,0,0,0,0,0,0,0,0,0
39,7600,23514,8010,-31531,25152,4785,-8292,0,0,0,0,0,0,0,0,0,0
40,7800,22035,9989,-32031,23784,4997,-8368,0,0,0,0,0,0,0,0,0,0
41,8000,20468,11929,-32405,22322,5207,-8429,0,0,0,0,0,0,0,0,0,0
42,8200,18821,13822,-32650,20772,5412,-8476,0,0,0,0,0,0,0,0,0,0
43,8400,17099,15660,-32767,19139,5612,-8507,0,0,0,0,0,0,0,0,0,0
44,8600,15310,17436,-32754,17432,5807,-8524,0,0,0,0,0,0,0,0,0,0
45,8800,13460,19144,-32613,15655,5995,-8525,0,0,0,0,0,0,0,0,0,0
46,9000,11557,20776,-32342,13817,6177,-8512,0,0,0,0,0,0,0,0,0,0
47,9200,9609,22326,-31944,11924,6350,-8483,0,0,0,0,0,0,0,0,0,0
48,9400,7623,23788,-31420,9984,6515,-8439,0,0,0,0,0,0,0,0,0,0
49,9600,5607,25156,-30771,8005,6671,-8380,0,0,0,0,0,0,0,0,0,0
50,9800,3568,26425,-30002,5994,6817,-8307,0,0,0,0,0,0,0,0,0,0
51,10000,1516,27589,-29114,3959,6952,-8219,0,0,0,0,0,0,0,0,0,0
52,10200,-543,28645,-28111,1909,7077,-8118,0,0,0,0,0,0,0,0,0,0
53,10400,-2599,29587,-26997,-149,7191,-8003,0,0,0,0,0,0,0,0,0,0
54,10600,-4645,30413,-25776,-2206,7292,-7875,0,0,0,0,0,0,0,0,0,0
55,10800,-6673,31119,-24454,-4255,7382,-7734,0,0,0,0,0,0,0,0,0,0
56,11000,-8675,31702,-23035,-6286,7458,-7581,0,0,0,0,0,0,0,0,0,0
57,11200,-10642,32160,-21526,-8293,7522,-7417,0,0,0,0,0,0,0,0,0,0
58,11400,-12567,32491,-19931,-10267,7573,-7241,0,0,0,0,0,0,0,0,0,0
59,11600,-14443,32693,-18258,-12201,7610,-7056,0,0,0,0,0,0,0,0,0,0
60,11800,-16261,32767,-16513,-14086,7634,-6862,0,0,0,0,0,0,0,0,0,0
61,12000,-18016,32711,-14702,-15916,7645,-6659,0,0,0,0,0,0,0,0,0,0
62,12200,-19699,32527,-12834,-17683,7641,-6448,0,0,0,0,0,0,0,0,0,0
63,12400,-21305,32213,-10915,-19380,7625,-6230,0,0,0,0,0,0,0,0,0,0
64,12600,-22826,31773,-8953,-21001,7594,-6006,0,0,0,0,0,0,0,0,0,0
65,12800,-24258,31208,-6955,-22539,7550,-5776,0,0,0,0,0,0,0,0,0,0
66,13000,-25594,30519,-4930,-23988,7493,-5543,0,0,0,0,0,0,0,0,0,0
67,13200,-26828,29710,-2886,-25342,7423,-5306,0,0,0,0,0,0,0,0,0,0
68,13400,-27957,28783,-830,-26597,7340,-5066,0,0,0,0,0,0,0,0,0,0
69,13600,-28976,27743,1229,-27746,7245,-4825,0,0,0,0,0,0,0,0,0,0
70,13800,-29880,26593,3284,-28786,7138,-4584,0,0,0,0,0,0,0,0,0,0
71,14000,-30666,25339,5325,-29712,7019,-4343,0,0,0,0,0,0,0,0,0,0
72,14200,-31331,23984,7345,-30521,6889,-4103,0,0,0,0,0,0,0,0,0,0
73,14400,-31873,22535,9336,-31209,6748,-3865,0,0,0,0,0,0,0,0,0,0
74,14600,-32288,20997,11291,-31775,6597,-3631,0,0,0,0,0,0,0,0,0,0
75,14800,-32577,19376,13201,-32215,6437,-3401,0,0,0,0,0,0,0,0,0,0
76,15000,-32736,17678,15058,-32527,6268,-3176,0,0,0,0,0,0,0,0,0,0
77,15200,-32767,15911,16857,-32712,6091,-2957,0,0,0,0,0,0,0,0,0,0
78,15400,-32668,14081,18589,-32767,5906,-2744,0,0,0,0,0,0,0,0,0,0
79,15600,-32441,12196,20247,-32693,5715,-2540,0,0,0,0,0,0,0,0,0,0
80,15800,-32085,10262,21826,-32490,5517,-2343,0,0,0,0,0,0,0,0,0,0
81,16000,-31603,8288,23318,-32159,5314,-2156,0,0,0,0,0,0,0,0,0,0
82,16200,-30995,6281,24718,-31701,5107,-1979,0,0,0,0,0,0,0,0,0,0
83,16400,-30266,4249,26021,-31117,4896,-1813,0,0,0,0,0,0,0,0,0,0
84,16600,-29417,2201,27221,-30411,4683,-1658,0,0,0,0,0,0,0,0,0,0
85,16800,-28452,143,28314,-29585,4467,-1515,0,0,0,0,0,0,0,0,0,0
86,17000,-27375,-1914,29295,-28642,4251,-1384,0,0,0,0,0,0,0,0,0,0
87,17200,-26190,-3965,30161,-27586,4034,-1267,0,0,0,0,0,0,0,0,0,0
88,17400,-24901,-5999,30907,-26422,3818,-1162,0,0,0,0,0,0,0,0,0,0
89,17600,-23514,-8010,31531,-25152,3603,-1072,0,0,0,0,0,0,0,0,0,0
90,17800,-22035,-9989,32031,-23784,3391,-996,0,0,0,0,0,0,0,0,0,0
91,18000,-20468,-11929,32405,-22322,3182,-935,0,0,0,0,0,0,0,0,0,0
92,18200,-18821,-13822,32650,-20772,2976,-888,0,0,0,0,0,0,0,0,0,0
93,18400,-17099,-15660,32767,-19139,2776,-856,0,0,0,0,0,0,0,0,0,0
94,18600,-15310,-17436,32754,-17432,2581,-840,0,0,0,0,0,0,0,0,0,0
95,18800,-13460,-19144,32613,-15655,2393,-838,0,0,0,0,0,0,0,0,0,0
96,19000,-11557,-20776,32342,-13817,2212,-852,0,0,0,0,0,0,0,0,0,0
97,19200,-9609,-22326,31944,-11924,2038,-881,0,0,0,0,0,0,0,0,0,0
98,19400,-7623,-23788,31420,-9984,1873,-925,0,0,0,0,0,0,0,0,0,0
99,19600,-5607,-25156,30771,-8005,1717,-984,0,0,0,0,0,0,0,0,0,0
100,19800,-3568,-26425,30002,-5994,1571,-1057,0,0,0,0,0,0,0,0,0,0
101,20000,-1516,-27589,29114,-3959,1436,-1144,0,0,0,0,0,0,0,0,0,0
102,20200,543,-28645,28111,-1909,1311,-1246,0,0,0,0,0,0,0,0,0,0
103,20400,2599,-29587,26997,149,1198,-1361,0,0,0,0,0,0,0,0,0,0
104,20600,4645,-30413,25776,2206,1096,-1489,0,0,0,0,0,0,0,0,0,0
105,20800,6673,-31119,24454,4255,1007,-1630,0,0,0,0,0,0,0,0,0,0
106,21000,8675,-31702,23035,6286,930,-1783,0,0,0,0,0,0,0,0,0,0
107,21200,10642,-32160,21526,8293,866,-1947,0,0,0,0,0,0,0,0,0,0
108,21400,12567,-32491,19931,10267,815,-2122,0,0,0,0,0,0,0,0,0,0
109,21600,14443,-32693,18258,12201,778,-2307,0,0,0,0,0,0,0,0,0,0
110,21800,16261,-32767,16513,14086,754,-2502,0,0,0,0,0,0,0,0,0,0
111,22000,18016,-32711,14702,15916,744,-2705,0,0,0,0,0,0,0,0,0,0
112,22200,19699,-32527,12834,17683,747,-2916,0,0,0,0,0,0,0,0,0,0
113,22400,21305,-32213,10915,19380,764,-3134,0,0,0,0,0,0,0,0,0,0
114,22600,22826,-31773,8953,21001,794,-3358,0,0,0,0,0,0,0,0,0,0
115,22800,24258,-31208,6955,22539,838,-3587,0,0,0,0,0,0,0,0,0,0
116,23000,25594,-30519,4930,23988,895,-3821,0,0,0,0,0,0,0,0,0,0
117,23200,26828,-29710,2886,25342,965,-4058,0,0,0,0,0,0,0,0,0,0
118,23400,27957,-28783,830,26597,1048,-4297,0,0,0,0,0,0,0,0,0,0
119,23600,28976,-27743,-1229,27746,1143,-4538,0,0,0,0,0,0,0,0,0,0
120,23800,29880,-26593,-3284,28786,1250,-4780,0,0,0,0,0,0,0,0,0,0
121,24000,30666,-25339,-5325,29712,1369,-5021,0,0,0,0,0,0,0,0,0,0
122,24200,31331,-23984,-7345,30521,1499,-5261,0,0,0,0,0,0,0,0,0,0
123,24400,31873,-22535,-9336,31209,1640,-5498,0,0,0,0,0,0,0,0,0,0
124,24600,32288,-20997,-11291,31775,1791,-5733,0,0,0,0,0,0,0,0,0,0
125,24800,32577,-19376,-13201,32215,1951,-5963,0,0,0,0,0,0,0,0,0,0
126,25000,32736,-17678,-15058,32527,2120,-6188,0,0,0,0,0,0,0,0,0,0
127,25200,32767,-15911,-16857,32712,2297,-6407,0,0,0,0,0,0,0,0,0,0
128,25400,32668,-14081,-18589,32767,2482,-6619,0,0,0,0,0,0,0,0,0,0
129,25600,32441,-12196,-20247,32693,2674,-6824,0,0,0,0,0,0,0,0,0,0
130,25800,32085,-10262,-21826,32490,2871,-7020,0,0,0,0,0,0,0,0,0,0
131,26000,31603,-8288,-23318,32159,3074,-7207,0,0,0,0,0,0,0,0,0,0
132,26200,30995,-6281,-24718,31701,3281,-7384,0,0,0,0,0,0,0,0,0,0
133,26400,30266,-4249,-26021,31117,3492,-7551,0,0,0,0,0,0,0,0,0,0
134,26600,29417,-2201,-27221,30411,3705,-7706,0,0,0,0,0,0,0,0,0,0
135,26800,28452,-143,-28314,29585,3921,-7849,0,0,0,0,0,0,0,0,0,0
136,27000,27375,1914,-29295,28642,4138,-7980,0,0,0,0,0,0,0,0,0,0
137,27200,26190,3965,-30161,27586,4354,-8097,0,0,0,0,0,0,0,0,0,0
138,27400,24901,5999,-30907,26422,4570,-8201,0,0,0,0,0,0,0,0,0,0
139,27600,23514,8010,-31531,25152,4785,-8292,0,0,0,0,0,0,0,0,0,0
140,27800,22035,9989,-32031,23784,4997,-8368,0,0,0,0,0,0,0,0,0,0
141,28000,20468,11929,-32405,22322,5207,-8429,0,0,0,0,0,0,0,0,0,0
142,28200,18821,13822,-32650,20772,5412,-8476,0,0,0,0,0,0,0,0,0,0
143,28400,17099,15660,-32767,19139,5612,-8507,0,0,0,0,0,0,0,0,0,0
144,28600,15310,17436,-32754,17432,5807,-8524,0,0,0,0,0,0,0,0,0,0
145,28800,13460,19144,-32613,15655,5995,-8525,0,0,0,0,0,0,0,0,0,0
146,29000,11557,20776,-32342,13817,6177,-8512,0,0,0,0,0,0,0,0,0,0
147,29200,9609,22326,-31944,11924,6350,-8483,0,0,0,0,0,0,0,0,0,0
148,29400,7623,23788,-31420,9984,6515,-8439,0,0,0,0,0,0,0,0,0,0
149,29600,5607,25156,-30771,8005,6671,-8380,0,0,0,0,0,0,0,0,0,0
150,29800,3568,26425,-30002,5994,6817,-8307,0,0,0,0,0,0,0,0,0,0
151,30000,1516,27589,-29114,3959,6952,-8219,0,0,0,0,0,0,0,0,0,0
152,30200,-543,28645,-28111,1909,7077,-8118,0,0,0,0,0,0,0,0,0,0
153,30400,-2599,29587,-26997,-149,7191,-8003,0,0,0,0,0,0,0,0,0,0
154,30600,-4645,30413,-25776,-2206,7292,-7875,0,0,0,0,0,0,0,0,0,0
155,30800,-6673,31119,-24454,-4255,7382,-7734,0,0,0,0,0,0,0,0,0,0
156,31000,-8675,31702,-23035,-6286,7458,-7581,0,0,0,0,0,0,0,0,0,0
157,31200,-10642,32160,-21526,-8293,7522,-7417,0,0,0,0,0,0,0,0,0,0
158,31400,-12567,32491,-19931,-10267,7573,-7241,0,0,0,0,0,0,0,0,0,0
159,31600,-14443,32693,-18258,-12201,7610,-7056,0,0,0,0,0,0,0,0,0,0
160,31800,-16261,32767,-16513,-14086,7634,-6862,0,0,0,0,0,0,0,0,0,0
161,32000,-18016,32711,-14702,-15916,7645,-6659,0,0,0,0,0,0,0,0,0,0
162,32200,-19699,32527,-12834,-17683,7641,-6448,0,0,0,0,0,0,0,0,0,0
163,32400,-21305,32213,-10915,-19380,7625,-6230,0,0,0,0,0,0,0,0,0,0
164,32600,-22826,31773,-8953,-21001,7594,-6006,0,0,0,0,0,0,0,0,0,0
165,32800,-24258,31208,-6955,-22539,7550,-5776,0,0,0,0,0,0,0,0,0,0
166,33000,-25594,30519,-4930,-23988,7493,-5543,0,0,0,0,0,0,0,0,0,0
167,33200,-26828,29710,-2886,-25342,7423,-5306,0,0,0,0,0,0,0,0,0,0
168,33400,-27957,28783,-830,-26597,7340,-5066,0,0,0,0,0,0,0,0,0,0
169,33600,-28976,27743,1229,-27746,7245,-4825,0,0,0,0,0,0,0,0,0,0
170,33800,-29880,26593,3284,-28786,7138,-4584,0,0,0,0,0,0,0,0,0,0
171,34000,-30666,25339,5325,-29712,7019,-4343,0,0,0,0,0,0,0,0,0,0
172,34200,-31331,23984,7345,-30521,6889,-4103,0,0,0,0,0,0,0,0,0,0
173,34400,-31873,22535,9336,-31209,6748,-3865,0,0,0,0,0,0,0,0,0,0
174,34600,-32288,20997,11291,-31775,6597,-3631,0,0,0,0,0,0,0,0,0,0
175,34800,-32577,19376,13201,-32215,6437,-3401,0,0,0,0,0,0,0,0,0,0
176,35000,-32736,17678,15058,-32527,6268,-3176,0,0,0,0,0,0,0,0,0,0
177,35200,-32767,15911,16857,-32712,6091,-2957,0,0,0,0,0,0,0,0,0,0
178,35400,-32668,14081,18589,-32767,5906,-2744,0,0,0,0,0,0,0,0,0,0
179,35600,-32441,12196,20247,-32693,5715,-2540,0,0,0,0,0,0,0,0,0,0
180,35800,-32085,10262,21826,-32490,5517,-2343,0,0,0,0,0,0,0,0,0,0
181,36000,-31603,8288,23318,-32159,5314,-2156,0,0,0,0,0,0,0,0,0,0
182,36200,-30995,6281,24718,-31701,5107,-1979,0,0,0,0,0,0,0,0,0,0
183,36400,-30266,4249,26021,-31117,4896,-1813,0,0,0,0,0,0,0,0,0,0
184,36600,-29417,2201,27221,-30411,4683,-1658,0,0,0,0,0,0,0,0,0,0
185,36800,-28452,143,28314,-29585,4467,-1515,0,0,0,0,0,0,0,0,0,0
186,37000,-27375,-1914,29295,-28642,4251,-1384,0,0,0,0,0,0,0,0,0,0
187,37200,-26190,-3965,30161,-27586,4034,-1267,0,0,0,0,0,0,0,0,0,0
188,37400,-24901,-5999,30907,-26422,3818,-1162,0,0,0,0,0,0,0,0,0,0
189,37600,-23514,-8010,31531,-25152,3603,-1072,0,0,0,0,0,0,0,0,0,0
190,37800,-22035,-9989,32031,-23784,3391,-996,0,0,0,0,0,0,0,0,0,0
191,38000,-20468,-11929,32405,-22322,3182,-935,0,0,0,0,0,0,0,0,0,0
192,38200,-18821,-13822,32650,-20772,2976,-888,0,0,0,0,0,0,0,0,0,0
193,38400,-17099,-15660,32767,-19139,2776,-856,0,0,0,0,0,0,0,0,0,0
194,38600,-15310,-17436,32754,-17432,2581,-840,0,0,0,0,0,0,0,0,0,0
195,38800,-13460,-19144,32613,-15655,2393,-838,0,0,0,0,0,0,0,0,0,0
196,39000,-11557,-20776,32342,-13817,2212,-852,0,0,0,0,0,0,0,0,0,0
197,39200,-9609,-22326,31944,-11924,2038,-881,0,0,0,0,0,0,0,0,0,0
198,39400,-7623,-23788,31420,-9984,1873,-925,0,0,0,0,0,0,0,0,0,0
199,39600,-5607,-25156,30771,-8005,1717,-984,0,0,0,0,0,0,0,0,0,0
200,39800,-3568,-26425,30002,-5994,1571,-1057,0,0,0,0,0,0,0,0,0,0
201,40000,-1516,-27589,29114,-3959,1436,-1144,0,0,0,0,0,0,0,0,0,0
202,40200,543,-28645,28111,-1909,1311,-1246,0,0,0,0,0,0,0,0,0,0
203,40400,2599,-29587,26997,149,1198,-1361,0,0,0,0,0,0,0,0,0,0
204,40600,4645,-30413,25776,2206,1096,-1489,0,0,0,0,0,0,0,0,0,0
205,40800,6673,-31119,24454,4255,1007,-1630,0,0,0,0,0,0,0,0,0,0
206,41000,8675,-31702,23035,6286,930,-1783,0,0,0,0,0,0,0,0,0,0
207,41200,10642,-32160,21526,8293,866,-1947,0,0,0,0,0,0,0,0,0,0
208,41400,12567,-32491,19931,10267,815,-2122,0,0,0,0,0,0,0,0,0,0
209,41600,14443,-32693,18258,12201,778,-2307,0,0,0,0,0,0,0,0,0,0
210,41800,16261,-32767,16513,14086,754,-2502,0,0,0,0,0,0,0,0,0,0
211,42000,18016,-32711,14702,15916,744,-2705,0,0,0,0,0,0,0,0,0,0
212,42200,19699,-32527,12834,17683,747,-2916,0,0,0,0,0,0,0,0,0,0
213,42400,21305,-32213,10915,19380,764,-3134,0,0,0,0,0,0,0,0,0,0
214,42600,22826,-31773,8953,21001,794,-3358,0,0,0,0,0,0,0,0,0,0
215,42800,24258,-31208,6955,22539,838,-3587,0,0,0,0,0,0,0,0,0,0
216,43000,25594,-30519,4930,23988,895,-3821,0,0,0,0,0,0,0,0,0,0
217,43200,26828,-29710,2886,25342,965,-4058,0,0,0,0,0,0,0,0,0,0
218,43400,27957,-28783,830,26597,1048,-4297,0,0,0,0,0,0,0,0,0,0
219,43600,28976,-27743,-1229,27746,1143,-4538,0,0,0,0,0,0,0,0,0,0
220,43800,29880,-26593,-3284,28786,1250,-4780,0,0,0,0,0,0,0,0,0,0
221,44000,30666,-25339,-5325,29712,1369,-5021,0,0,0,0,0,0,0,0,0,0
222,44200,31331,-23984,-7345,30521,1499,-5261,0,0,0,0,0,0,0,0,0,0
223,44400,31873,-22535,-9336,31209,1640,-5498,0,0,0,0,0,0,0,0,0,0
224,44600,32288,-20997,-11291,31775,1791,-5733,0,0,0,0,0,0,0,0,0,0
225,44800,32577,-19376,-13201,32215,1951,-5963,0,0,0,0,0,0,0,0,0,0
226,45000,32736,-17678,-15058,32527,2120,-6188,0,0,0,0,0,0,0,0,0,0
227,45200,32767,-15911,-16857,32712,2297,-6407,0,0,0,0,0,0,0,0,0,0
228,45400,32668,-14081,-18589,32767,2482,-6619,0,0,0,0,0,0,0,0,0,0
229,45600,32441,-12196,-20247,32693,2674,-6824,0,0,0,0,0,0,0,0,0,0
230,45800,32085,-10262,-21826,32490,2871,-7020,0,0,0,0,0,0,0,0,0,0
231,46000,31603,-8288,-23318,32159,3074,-7207,0,0,0,0,0,0,0,0,0,0
232,46200,30995,-6281,-24718,31701,3281,-7384,0,0,0,0,0,0,0,0,0,0
233,46400,30266,-4249,-26021,31117,3492,-7551,0,0,0,0,0,0,0,0,0,0
234,46600,29417,-2201,-27221,30411,3705,-7706,0,0,0,0,0,0,0,0,0,0
235,46800,28452,-143,-28314,29585,3921,-7849,0,0,0,0,0,0,0,0,0,0
236,47000,27375,1914,-29295,28642,4138,-7980,0,0,0,0,0,0,0,0,0,0
237,47200,26190,3965,-30161,27586,4354,-8097,0,0,0,0,0,0,0,0,0,0
238,47400,24901,5999,-30907,26422,4570,-8201,0,0,0,0,0,0,0,0,0,0
239,47600,23514,8010,-31531,25152,4785,-8292,0,0,0,0,0,0,0,0,0,0
240,47800,22035,9989,-32031,23784,4997,-8368,0,0,0,0,0,0,0,0,0,0
241,48000,20468,11929,-32405,22322,5207,-8429,0,0,0,0,0,0,0,0,0,0
242,48200,18821,13822,-32650,20772,5412,-8476,0,0,0,0,0,0,0,0,0,0
243,48400,17099,15660,-32767,19139,5612,-8507,0,0,0,0,0,0,0,0,0,0
244,48600,15310,17436,-32754,17432,5807,-8524,0,0,0,0,0,0,0,0,0,0
245,48800,13460,19144,-32613,15655,5995,-8525,0,0,0,0,0,0,0,0,0,0
246,49000,11557,20776,-32342,13817,6177,-8512,0,0,0,0,0,0,0,0,0,0
247,49200,9609,22326,-31944,11924,6350,-8483,0,0,0,0,0,0,0,0,0,0
248,49400,7623,23788,-31420,9984,6515,-8439,0,0,0,0,0,0,0,0,0,0
249,49600,5607,25156,-30771,8005,6671,-8380,0,0,0,0,0,0,0,0,0,0
250,49800,3568,26425,-30002,5994,6817,-8307,0,0,0,0,0,0,0,0,0,0
251,50000,1516,27589,-29114,3959,6952,-8219,0,0,0,0,0,0,0,0,0,0
252,50200,-543,28645,-28111,1909,7077,-8118,0,0,0,0,0,0,0,0,0,0
253,50400,-2599,29587,-26997,-149,7191,-8003,0,0,0,0,0,0,0,0,0,0
254,50600,-4645,30413,-25776,-2206,7292,-7875,0,0,0,0,0,0,0,0,0,0
255,50800,-6673,31119,-24454,-4255,7382,-7734,0,0,0,0,0,0,0,0,0,0
256,51000,-8675,31702,-23035,-6286,7458,-7581,0,0,0,0,0,0,0,0,0,0
257,51200,-10642,32160,-21526,-8293,7522,-7417,0,0,0,0,0,0,0,0,0,0
258,51400,-12567,32491,-19931,-10267,7573,-7241,0,0,0,0,0,0,0,0,0,0
259,51600,-14443,32693,-18258,-12201,7610,-7056,0,0,0,0,0,0,0,0,0,0
260,51800,-16261,32767,-16513,-14086,7634,-6862,0,0,0,0,0,0,0,0,0,0
261,52000,-18016,32711,-14702,-15916,7645,-6659,0,0,0,0,0,0,0,0,0,0
262,52200,-19699,32527,-12834,-17683,7641,-6448,0,0,0,0,0,0,0,0,0,0
263,52400,-21305,32213,-10915,-19380,7625,-6230,0,0,0,0,0,0,0,0,0,0
264,52600,-22826,31773,-8953,-21001,7594,-6006,0,0,0,0,0,0,0,0,0,0
265,52800,-24258,31208,-6955,-22539,7550,-5776,0,0,0,0,0,0,0,0,0,0
266,53000,-25594,30519,-4930,-23988,7493,-5543,0,0,0,0,0,0,0,0,0,0
267,53200,-26828,29710,-2886,-25342,7423,-5306,0,0,0,0,0,0,0,0,0,0
268,53400,-27957,28783,-830,-26597,7340,-5066,0,0,0,0,0,0,0,0,0,0
269,53600,-28976,27743,1229,-27746,7245,-4825,0,0,0,0,0,0,0,0,0,0
270,53800,-29880,26593,3284,-28786,7138,-4584,0,0,0,0,0,0,0,0,0,0
271,54000,-30666,25339,5325,-29712,7019,-4343,0,0,0,0,0,0,0,0,0,0
272,54200,-31331,23984,7345,-30521,6889,-4103,0,0,0,0,0,0,0,0,0,0
273,54400,-31873,22535,9336,-31209,6748,-3865,0,0,0,0,0,0,0,0,0,0
274,54600,-32288,20997,11291,-31775,6597,-3631,0,0,0,0,0,0,0,0,0,0
275,54800,-32577,19376,13201,-32215,6437,-3401,0,0,0,0,0,0,0,0,0,0
276,55000,-32736,17678,15058,-32527,6268,-3176,0,0,0,0,0,0,0,0,0,0
277,55200,-32767,15911,16857,-32712,6091,-2957,0,0,0,0,0,0,0,0,0,0
278,55400,-32668,14081,18589,-32767,5906,-2744,0,0,0,0,0,0,0,0,0,0
279,55600,-32441,12196,20247,-32693,5715,-2540,0,0,0,0,0,0,0,0,0,0
280,55800,-32085,10262,21826,-32490,5517,-2343,0,0,0,0,0,0,0,0,0,0
281,56000,-31603,8288,23318,-32159,5314,-2156,0,0,0,0,0,0,0,0,0,0
282,56200,-30995,6281,24718,-31701,5107,-1979,0,0,0,0,0,0,0,0,0,0
283,56400,-30266,4249,26021,-31117,4896,-1813,0,0,0,0,0,0,0,0,0,0
284,56600,-29417,2201,27221,-30411,4683,-1658,0,0,0,0,0,0,0,0,0,0
285,56800,-28452,143,28314,-29585,4467,-1515,0,0,0,0,0,0,0,0,0,0
286,57000,-27375,-1914,29295,-28642,4251,-1384,0,0,0,0,0,0,0,0,0,0
287,57200,-26190,-3965,30161,-27586,4034,-1267,0,0,0,0,0,0,0,0,0,0
288,57400,-24901,-5999,30907,-26422,3818,-1162,0,0,0,0,0,0,0,0,0,0
289,57600,-23514,-8010,31531,-25152,3603,-1072,0,0,0,0,0,0,0,0,0,0
290,57800,-22035,-9989,32031,-23784,3391,-996,0,0,0,0,0,0,0,0,0,0
291,58000,-20468,-11929,32405,-22322,3182,-935,0,0,0,0,0,0,0,0,0,0
292,58200,-18821,-13822,32650,-20772,2976,-888,0,0,0,0,0,0,0,0,0,0
293,58400,-17099,-15660,32767,-19139,2776,-856,0,0,0,0,0,0,0,0,0,0
294,58600,-15310,-17436,32754,-17432,2581,-840,0,0,0,0,0,0,0,0,0,0
