Essai-1-115%-L2N-Franc - 7,,1999
16,6A,10D
1,V L1-N,,5,V,0.0024770421047181144,-6.4914189579212689e-09,0,-32767,32767,225000,100,S
2,V L2-N,,6,V,0.0024773584552220699,5.068045538791921e-09,0,-32767,32767,225000,100,S
3,V L3-N,,7,V,0.0024888091713668376,0.0068085657437677582,0,-32767,32767,225000,100,S
4,I L1,,1,A,4.4249743663399181e-05,0.00042573993404704247,0,-32767,32767,1500,1,S
5,I L2,,2,A,0.00023429581263045547,-0.022520974323153808,0,-32767,32767,1500,1,S
6,I L3,,3,A,4.3409309730181888e-05,-5.9604765567655704e-11,0,-32767,32767,1500,1,S
1,Dclt A,,,1
2,Dclt B,,,1
3,Dclt C,,,1
4,PX.MR,,,1
5,PX.ZON1,,,1
6,PX.ZON2,,,1
7,PX.STA3,,,1
8,PX.AVAL,,,1
9,PX.AMON,,,1
10,PX.TERRE,,,1
50
1
5000,4401
11/03/2015,09:58:09.397249
11/03/2015,09:58:09.908049
ASCII
1
1,0,-1516,-27589,28968,-3895,-4758,30158,0,0,0,0,0,0,0,0,0,0
2,200,543,-28645,27970,-1883,-4977,29293,0,0,0,0,0,0,0,0,0,0
3,400,2599,-29587,26862,137,-5177,28311,0,0,0,0,0,0,0,0,0,0
4,600,4645,-30413,25647,2155,-5356,27218,0,0,0,0,0,0,0,0,0,0
5,800,6673,-31119,24331,4165,-5513,26018,0,0,0,0,0,0,0,0,0,0
6,1000,8675,-31702,22920,6159,-5648,24715,0,0,0,0,0,0,0,0,0,0
7,1200,10642,-32160,21417,8129,-5760,23314,0,0,0,0,0,0,0,0,0,0
8,1400,12567,-32491,19831,10066,-5850,21822,0,0,0,0,0,0,0,0,0,0
9,1600,14443,-32693,18166,11963,-5916,20243,0,0,0,0,0,0,0,0,0,0
10,1800,16261,-32767,16429,13813,-5958,18584,0,0,0,0,0,0,0,0,0,0
11,2000,18016,-32711,14627,15609,-5976,16852,0,0,0,0,0,0,0,0,0,0
12,2200,19699,-32527,12768,17343,-5970,15054,0,0,0,0,0,0,0,0,0,0
13,2400,21305,-32213,10858,19009,-5941,13196,0,0,0,0,0,0,0,0,0,0
14,2600,22826,-31773,8906,20599,-5887,11286,0,0,0,0,0,0,0,0,0,0
15,2800,24258,-31208,6918,22108,-5810,9331,0,0,0,0,0,0,0,0,0,0
16,3000,25594,-30519,4903,23530,-5710,7340,0,0,0,0,0,0,0,0,0,0
17,3200,26828,-29710,2869,24859,-5586,5319,0,0,0,0,0,0,0,0,0,0
18,3400,27957,-28783,823,26090,-5440,3278,0,0,0,0,0,0,0,0,0,0
19,3600,28976,-27743,-1226,27218,-5273,1224,0,0,0,0,0,0,0,0,0,0
20,3800,29880,-26593,-3270,28238,-5084,-835,0,0,0,0,0,0,0,0,0,0
21,4000,30666,-25339,-5301,29147,-4875,-2891,0,0,0,0,0,0,0,0,0,0
22,4200,31331,-23984,-7312,29941,-4646,-4936,0,0,0,0,0,0,0,0,0,0
23,4400,31873,-22535,-9293,30617,-4398,-6961,0,0,0,0,0,0,0,0,0,0
24,4600,32288,-20997,-11238,31171,-4133,-8958,0,0,0,0,0,0,0,0,0,0
25,4800,32577,-19376,-13139,31603,-3851,-10920,0,0,0,0,0,0,0,0,0,0
26,5000,32736,-17678,-14987,31910,-3554,-12839,0,0,0,0,0,0,0,0,0,0
27,5200,32767,-15911,-16777,32091,-3242,-14707,0,0,0,0,0,0,0,0,0,0
28,5400,32668,-14081,-18500,32145,-2916,-16518,0,0,0,0,0,0,0,0,0,0
29,5600,32441,-12196,-20150,32073,-2579,-18263,0,0,0,0,0,0,0,0,0,0
30,5800,32085,-10262,-21721,31873,-2232,-19936,0,0,0,0,0,0,0,0,0,0
31,6000,31603,-8288,-23206,31548,-1875,-21530,0,0,0,0,0,0,0,0,0,0
32,6200,30995,-6281,-24600,31099,-1510,-23040,0,0,0,0,0,0,0,0,0,0
33,6400,30266,-4249,-25896,30526,-1139,-24458,0,0,0,0,0,0,0,0,0,0
34,6600,29417,-2201,-27091,29833,-764,-25780,0,0,0,0,0,0,0,0,0,0
35,6800,28452,-143,-28178,29023,-385,-27000,0,0,0,0,0,0,0,0,0,0
36,7000,27375,1914,-29154,28097,-3,-28114,0,0,0,0,0,0,0,0,0,0
37,7200,26190,3965,-30015,27061,378,-29116,0,0,0,0,0,0,0,0,0,0
38,7400,24901,5999,-30758,25918,758,-30004,0,0,0,0,0,0,0,0,0,0
39,7600,23514,8010,-31379,24673,1136,-30774,0,0,0,0,0,0,0,0,0,0
40,7800,22035,9989,-31877,23330,1510,-31421,0,0,0,0,0,0,0,0,0,0
41,8000,20468,11929,-32248,21895,1878,-31945,0,0,0,0,0,0,0,0,0,0
42,8200,18821,13822,-32493,20374,2239,-32343,0,0,0,0,0,0,0,0,0,0
43,8400,17099,15660,-32609,18772,2591,-32613,0,0,0,0,0,0,0,0,0,0
44,8600,15310,17436,-32596,17096,2934,-32755,0,0,0,0,0,0,0,0,0,0
45,8800,13460,19144,-32455,15353,3266,-32767,0,0,0,0,0,0,0,0,0,0
46,9000,11557,20776,-32186,13549,3585,-32650,0,0,0,0,0,0,0,0,0,0
47,9200,9609,22326,-31790,11691,3890,-32404,0,0,0,0,0,0,0,0,0,0
48,9400,7623,23788,-31268,9788,4180,-32030,0,0,0,0,0,0,0,0,0,0
49,9600,5607,25156,-30623,7845,4454,-31530,0,0,0,0,0,0,0,0,0,0
50,9800,3568,26425,-29857,5872,4711,-30905,0,0,0,0,0,0,0,0,0,0
51,10000,1516,27589,-28973,3875,4950,-30158,0,0,0,0,0,0,0,0,0,0
52,10200,-543,28645,-27975,1864,5170,-29293,0,0,0,0,0,0,0,0,0,0
53,10400,-2599,29587,-26867,-156,5369,-28311,0,0,0,0,0,0,0,0,0,0
54,10600,-4645,30413,-25653,-2174,5548,-27218,0,0,0,0,0,0,0,0,0,0
55,10800,-6673,31119,-24337,-4185,5705,-26018,0,0,0,0,0,0,0,0,0,0
56,11000,-8675,31702,-22925,-6178,5840,-24715,0,0,0,0,0,0,0,0,0,0
57,11200,-10642,32160,-21423,-8148,5953,-23314,0,0,0,0,0,0,0,0,0,0
58,11400,-12567,32491,-19836,-10085,6042,-21822,0,0,0,0,0,0,0,0,0,0
59,11600,-14443,32693,-18171,-11982,6108,-20243,0,0,0,0,0,0,0,0,0,0
60,11800,-16261,32767,-16434,-13833,6150,-18584,0,0,0,0,0,0,0,0,0,0
61,12000,-18016,32711,-14633,-15628,6168,-16852,0,0,0,0,0,0,0,0,0,0
62,12200,-19699,32527,-12774,-17362,6162,-15054,0,0,0,0,0,0,0,0,0,0
63,12400,-21305,32213,-10864,-19028,6133,-13196,0,0,0,0,0,0,0,0,0,0
64,12600,-22826,31773,-8911,-20618,6079,-11286,0,0,0,0,0,0,0,0,0,0
65,12800,-24258,31208,-6924,-22128,6002,-9331,0,0,0,0,0,0,0,0,0,0
66,13000,-25594,30519,-4909,-23549,5902,-7340,0,0,0,0,0,0,0,0,0,0
67,13200,-26828,29710,-2874,-24878,5778,-5319,0,0,0,0,0,0,0,0,0,0
68,13400,-27957,28783,-828,-26109,5633,-3278,0,0,0,0,0,0,0,0,0,0
69,13600,-28976,27743,1221,-27237,5465,-1224,0,0,0,0,0,0,0,0,0,0
70,13800,-29880,26593,3265,-28257,5276,835,0,0,0,0,0,0,0,0,0,0
71,14000,-30666,25339,5296,-29166,5067,2891,0,0,0,0,0,0,0,0,0,0
72,14200,-31331,23984,7306,-29960,4838,4936,0,0,0,0,0,0,0,0,0,0
73,14400,-31873,22535,9288,-30636,4591,6961,0,0,0,0,0,0,0,0,0,0
74,14600,-32288,20997,11233,-31191,4325,8958,0,0,0,0,0,0,0,0,0,0
75,14800,-32577,19376,13133,-31622,4043,10920,0,0,0,0,0,0,0,0,0,0
76,15000,-32736,17678,14982,-31929,3746,12839,0,0,0,0,0,0,0,0,0,0
77,15200,-32767,15911,16771,-32110,3434,14707,0,0,0,0,0,0,0,0,0,0
78,15400,-32668,14081,18495,-32164,3109,16518,0,0,0,0,0,0,0,0,0,0
79,15600,-32441,12196,20145,-32092,2772,18263,0,0,0,0,0,0,0,0,0,0
80,15800,-32085,10262,21716,-31893,2424,19936,0,0,0,0,0,0,0,0,0,0
81,16000,-31603,8288,23201,-31567,2067,21530,0,0,0,0,0,0,0,0,0,0
82,16200,-30995,6281,24594,-31118,1703,23040,0,0,0,0,0,0,0,0,0,0
83,16400,-30266,4249,25891,-30545,1332,24458,0,0,0,0,0,0,0,0,0,0
84,16600,-29417,2201,27085,-29853,956,25780,0,0,0,0,0,0,0,0,0,0
85,16800,-28452,143,28172,-29042,577,27000,0,0,0,0,0,0,0,0,0,0
86,17000,-27375,-1914,29149,-28117,196,28114,0,0,0,0,0,0,0,0,0,0
87,17200,-26190,-3965,30010,-27080,-186,29116,0,0,0,0,0,0,0,0,0,0
88,17400,-24901,-5999,30752,-25937,-566,30004,0,0,0,0,0,0,0,0,0,0
89,17600,-23514,-8010,31374,-24692,-944,30774,0,0,0,0,0,0,0,0,0,0
90,17800,-22035,-9989,31871,-23349,-1317,31421,0,0,0,0,0,0,0,0,0,0
91,18000,-20468,-11929,32243,-21915,-1686,31945,0,0,0,0,0,0,0,0,0,0
92,18200,-18821,-13822,32487,-20393,-2047,32343,0,0,0,0,0,0,0,0,0,0
93,18400,-17099,-15660,32603,-18791,-2399,32613,0,0,0,0,0,0,0,0,0,0
94,18600,-15310,-17436,32591,-17116,-2742,32755,0,0,0,0,0,0,0,0,0,0
95,18800,-13460,-19144,32450,-15372,-3073,32767,0,0,0,0,0,0,0,0,0,0
96,19000,-11557,-20776,32181,-13568,-3392,32650,0,0,0,0,0,0,0,0,0,0
97,19200,-9609,-22326,31784,-11711,-3698,32404,0,0,0,0,0,0,0,0,0,0
98,19400,-7623,-23788,31263,-9807,-3988,32030,0,0,0,0,0,0,0,0,0,0
99,19600,-5607,-25156,30618,-7865,-4262,31530,0,0,0,0,0,0,0,0,0,0
100,19800,-3568,-26425,29852,-5891,-4519,30905,0,0,0,0,0,0,0,0,0,0
101,20000,-1516,-27589,28968,-3895,-4758,30158,0,0,0,0,0,0,0,0,0,0
102,20200,543,-28645,27970,-1883,-4977,29293,0,0,0,0,0,0,0,0,0,0
103,20400,2599,-29587,26862,137,-5177,28311,0,0,0,0,0,0,0,0,0,0
104,20600,4645,-30413,25647,2155,-5356,27218,0,0,0,0,0,0,0,0,0,0
105,20800,6673,-31119,24331,4165,-5513,26018,0,0,0,0,0,0,0,0,0,0
106,21000,8675,-31702,22920,6159,-5648,24715,0,0,0,0,0,0,0,0,0,0
107,21200,10642,-32160,21417,8129,-5760,23314,0,0,0,0,0,0,0,0,0,0
108,21400,12567,-32491,19831,10066,-5850,21822,0,0,0,0,0,0,0,0,0,0
109,21600,14443,-32693,18166,11963,-5916,20243,0,0,0,0,0,0,0,0,0,0
110,21800,16261,-32767,16429,13813,-5958,18584,0,0,0,0,0,0,0,0,0,0
111,22000,18016,-32711,14627,15609,-5976,16852,0,0,0,0,0,0,0,0,0,0
112,22200,19699,-32527,12768,17343,-5970,15054,0,0,0,0,0,0,0,0,0,0
113,22400,21305,-32213,10858,19009,-5941,13196,0,0,0,0,0,0,0,0,0,0
114,22600,22826,-31773,8906,20599,-5887,11286,0,0,0,0,0,0,0,0,0,0
115,22800,24258,-31208,6918,22108,-5810,9331,0,0,0,0,0,0,0,0,0,0
116,23000,25594,-30519,4903,23530,-5710,7340,0,0,0,0,0,0,0,0,0,0
117,23200,26828,-29710,2869,24859,-5586,5319,0,0,0,0,0,0,0,0,0,0
118,23400,27957,-28783,823,26090,-5440,3278,0,0,0,0,0,0,0,0,0,0
119,23600,28976,-27743,-1226,27218,-5273,1224,0,0,0,0,0,0,0,0,0,0
120,23800,29880,-26593,-3270,28238,-5084,-835,0,0,0,0,0,0,0,0,0,0
121,24000,30666,-25339,-5301,29147,-4875,-2891,0,0,0,0,0,0,0,0,0,0
122,24200,31331,-23984,-7312,29941,-4646,-4936,0,0,0,0,0,0,0,0,0,0
123,24400,31873,-22535,-9293,30617,-4398,-6961,0,0,0,0,0,0,0,0,0,0
124,24600,32288,-20997,-11238,31171,-4133,-8958,0,0,0,0,0,0,0,0,0,0
125,24800,32577,-19376,-13139,31603,-3851,-10920,0,0,0,0,0,0,0,0,0,0
126,25000,32736,-17678,-14987,31910,-3554,-12839,0,0,0,0,0,0,0,0,0,0
127,25200,32767,-15911,-16777,32091,-3242,-14707,0,0,0,0,0,0,0,0,0,0
128,25400,32668,-14081,-18500,32145,-2916,-16518,0,0,0,0,0,0,0,0,0,0
129,25600,32441,-12196,-20150,32073,-2579,-18263,0,0,0,0,0,0,0,0,0,0
130,25800,32085,-10262,-21721,31873,-2232,-19936,0,0,0,0,0,0,0,0,0,0
131,26000,31603,-8288,-23206,31548,-1875,-21530,0,0,0,0,0,0,0,0,0,0
132,26200,30995,-6281,-24600,31099,-1510,-23040,0,0,0,0,0,0,0,0,0,0
133,26400,30266,-4249,-25896,30526,-1139,-24458,0,0,0,0,0,0,0,0,0,0
134,26600,29417,-2201,-27091,29833,-764,-25780,0,0,0,0,0,0,0,0,0,0
135,26800,28452,-143,-28178,29023,-385,-27000,0,0,0,0,0,0,0,0,0,0
136,27000,27375,1914,-29154,28097,-3,-28114,0,0,0,0,0,0,0,0,0,0
137,27200,26190,3965,-30015,27061,378,-29116,0,0,0,0,0,0,0,0,0,0
138,27400,24901,5999,-30758,25918,758,-30004,0,0,0,0,0,0,0,0,0,0
139,27600,23514,8010,-31379,24673,1136,-30774,0,0,0,0,0,0,0,0,0,0
140,27800,22035,9989,-31877,23330,1510,-31421,0,0,0,0,0,0,0,0,0,0
141,28000,20468,11929,-32248,21895,1878,-31945,0,0,0,0,0,0,0,0,0,0
142,28200,18821,13822,-32493,20374,2239,-32343,0,0,0,0,0,0,0,0,0,0
143,28400,17099,15660,-32609,18772,2591,-32613,0,0,0,0,0,0,0,0,0,0
144,28600,15310,17436,-32596,17096,2934,-32755,0,0,0,0,0,0,0,0,0,0
145,28800,13460,19144,-32455,15353,3266,-32767,0,0,0,0,0,0,0,0,0,0
146,29000,11557,20776,-32186,13549,3585,-32650,0,0,0,0,0,0,0,0,0,0
147,29200,9609,22326,-31790,11691,3890,-32404,0,0,0,0,0,0,0,0,0,0
148,29400,7623,23788,-31268,9788,4180,-32030,0,0,0,0,0,0,0,0,0,0
149,29600,5607,25156,-30623,7845,4454,-31530,0,0,0,0,0,0,0,0,0,0
150,29800,3568,26425,-29857,5872,4711,-30905,0,0,0,0,0,0,0,0,0,0
151,30000,1516,27589,-28973,3875,4950,-30158,0,0,0,0,0,0,0,0,0,0
152,30200,-543,28645,-27975,1864,5170,-29293,0,0,0,0,0,0,0,0,0,0
153,30400,-2599,29587,-26867,-156,5369,-28311,0,0,0,0,0,0,0,0,0,0
154,30600,-4645,30413,-25653,-2174,5548,-27218,0,0,0,0,0,0,0,0,0,0
155,30800,-6673,31119,-24337,-4185,5705,-26018,0,0,0,0,0,0,0,0,0,0
156,31000,-8675,31702,-22925,-6178,5840,-24715,0,0,0,0,0,0,0,0,0,0
157,31200,-10642,32160,-21423,-8148,5953,-23314,0,0,0,0,0,0,0,0,0,0
158,31400,-12567,32491,-19836,-10085,6042,-21822,0,0,0,0,0,0,0,0,0,0
159,31600,-14443,32693,-18171,-11982,6108,-20243,0,0,0,0,0,0,0,0,0,0
160,31800,-16261,32767,-16434,-13833,6150,-18584,0,0,0,0,0,0,0,0,0,0
161,32000,-18016,32711,-14633,-15628,6168,-16852,0,0,0,0,0,0,0,0,0,0
162,32200,-19699,32527,-12774,-17362,6162,-15054,0,0,0,0,0,0,0,0,0,0
163,32400,-21305,32213,-10864,-19028,6133,-13196,0,0,0,0,0,0,0,0,0,0
164,32600,-22826,31773,-8911,-20618,6079,-11286,0,0,0,0,0,0,0,0,0,0
165,32800,-24258,31208,-6924,-22128,6002,-9331,0,0,0,0,0,0,0,0,0,0
166,33000,-25594,30519,-4909,-23549,5902,-7340,0,0,0,0,0,0,0,0,0,0
167,33200,-26828,29710,-2874,-24878,5778,-5319,0,0,0,0,0,0,0,0,0,0
168,33400,-27957,28783,-828,-26109,5633,-3278,0,0,0,0,0,0,0,0,0,0
169,33600,-28976,27743,1221,-27237,5465,-1224,0,0,0,0,0,0,0,0,0,0
170,33800,-29880,26593,3265,-28257,5276,835,0,0,0,0,0,0,0,0,0,0
171,34000,-30666,25339,5296,-29166,5067,2891,0,0,0,0,0,0,0,0,0,0
172,34200,-31331,23984,7306,-29960,4838,4936,0,0,0,0,0,0,0,0,0,0
173,34400,-31873,22535,9288,-30636,4591,6961,0,0,0,0,0,0,0,0,0,0
174,34600,-32288,20997,11233,-31191,4325,8958,0,0,0,0,0,0,0,0,0,0
175,34800,-32577,19376,13133,-31622,4043,10920,0,0,0,0,0,0,0,0,0,0
176,35000,-32736,17678,14982,-31929,3746,12839,0,0,0,0,0,0,0,0,0,0
177,35200,-32767,15911,16771,-32110,3434,14707,0,0,0,0,0,0,0,0,0,0
178,35400,-32668,14081,18495,-32164,3109,16518,0,0,0,0,0,0,0,0,0,0
179,35600,-32441,12196,20145,-32092,2772,18263,0,0,0,0,0,0,0,0,0,0
180,35800,-32085,10262,21716,-31893,2424,19936,0,0,0,0,0,0,0,0,0,0
181,36000,-31603,8288,23201,-31567,2067,21530,0,0,0,0,0,0,0,0,0,0
182,36200,-30995,6281,24594,-31118,1703,23040,0,0,0,0,0,0,0,0,0,0
183,36400,-30266,4249,25891,-30545,1332,24458,0,0,0,0,0,0,0,0,0,0
184,36600,-29417,2201,27085,-29853,956,25780,0,0,0,0,0,0,0,0,0,0
185,36800,-28452,143,28172,-29042,577,27000,0,0,0,0,0,0,0,0,0,0
186,37000,-27375,-1914,29149,-28117,196,28114,0,0,0,0,0,0,0,0,0,0
187,37200,-26190,-3965,30010,-27080,-186,29116,0,0,0,0,0,0,0,0,0,0
188,37400,-24901,-5999,30752,-25937,-566,30004,0,0,0,0,0,0,0,0,0,0
189,37600,-23514,-8010,31374,-24692,-944,30774,0,0,0,0,0,0,0,0,0,0
190,37800,-22035,-9989,31871,-23349,-1317,31421,0,0,0,0,0,0,0,0,0,0
191,38000,-20468,-11929,32243,-21915,-1686,31945,0,0,0,0,0,0,0,0,0,0
192,38200,-18821,-13822,32487,-20393,-2047,32343,0,0,0,0,0,0,0,0,0,0
193,38400,-17099,-15660,32603,-18791,-2399,32613,0,0,0,0,0,0,0,0,0,0
194,38600,-15310,-17436,32591,-17116,-2742,32755,0,0,0,0,0,0,0,0,0,0
195,38800,-13460,-19144,32450,-15372,-3073,32767,0,0,0,0,0,0,0,0,0,0
196,39000,-11557,-20776,32181,-13568,-3392,32650,0,0,0,0,0,0,0,0,0,0
197,39200,-9609,-22326,31784,-11711,-3698,32404,0,0,0,0,0,0,0,0,0,0
198,39400,-7623,-23788,31263,-9807,-3988,32030,0,0,0,0,0,0,0,0,0,0
199,39600,-5607,-25156,30618,-7865,-4262,31530,0,0,0,0,0,0,0,0,0,0
200,39800,-3568,-26425,29852,-5891,-4519,30905,0,0,0,0,0,0,0,0,0,0
201,40000,-1516,-27589,28968,-3895,-4758,30158,0,0,0,0,0,0,0,0,0,0
202,40200,543,-28645,27970,-1883,-4977,29293,0,0,0,0,0,0,0,0,0,0
203,40400,2599,-29587,26862,137,-5177,28311,0,0,0,0,0,0,0,0,0,0
204,40600,4645,-30413,25647,2155,-5356,27218,0,0,0,0,0,0,0,0,0,0
205,40800,6673,-31119,24331,4165,-5513,26018,0,0,0,0,0,0,0,0,0,0
206,41000,8675,-31702,22920,6159,-5648,24715,0,0,0,0,0,0,0,0,0,0
207,41200,10642,-32160,21417,8129,-5760,23314,0,0,0,0,0,0,0,0,0,0
208,41400,12567,-32491,19831,10066,-5850,21822,0,0,0,0,0,0,0,0,0,0
209,41600,14443,-32693,18166,11963,-5916,20243,0,0,0,0,0,0,0,0,0,0
210,41800,16261,-32767,16429,13813,-5958,18584,0,0,0,0,0,0,0,0,0,0
211,42000,18016,-32711,14627,15609,-5976,16852,0,0,0,0,0,0,0,0,0,0
212,42200,19699,-32527,12768,17343,-5970,15054,0,0,0,0,0,0,0,0,0,0
213,42400,21305,-32213,10858,19009,-5941,13196,0,0,0,0,0,0,0,0,0,0
214,42600,22826,-31773,8906,20599,-5887,11286,0,0,0,0,0,0,0,0,0,0
215,42800,24258,-31208,6918,22108,-5810,9331,0,0,0,0,0,0,0,0,0,0
216,43000,25594,-30519,4903,23530,-5710,7340,0,0,0,0,0,0,0,0,0,0
217,43200,26828,-29710,2869,24859,-5586,5319,0,0,0,0,0,0,0,0,0,0
218,43400,27957,-28783,823,26090,-5440,3278,0,0,0,0,0,0,0,0,0,0
219,43600,28976,-27743,-1226,27218,-5273,1224,0,0,0,0,0,0,0,0,0,0
220,43800,29880,-26593,-3270,28238,-5084,-835,0,0,0,0,0,0,0,0,0,0
221,44000,30666,-25339,-5301,29147,-4875,-2891,0,0,0,0,0,0,0,0,0,0
222,44200,31331,-23984,-7312,29941,-4646,-4936,0,0,0,0,0,0,0,0,0,0
223,44400,31873,-22535,-9293,30617,-4398,-6961,0,0,0,0,0,0,0,0,0,0
224,44600,32288,-20997,-11238,31171,-4133,-8958,0,0,0,0,0,0,0,0,0,0
225,44800,32577,-19376,-13139,31603,-3851,-10920,0,0,0,0,0,0,0,0,0,0
226,45000,32736,-17678,-14987,31910,-3554,-12839,0,0,0,0,0,0,0,0,0,0
227,45200,32767,-15911,-16777,32091,-3242,-14707,0,0,0,0,0,0,0,0,0,0
228,45400,32668,-14081,-18500,32145,-2916,-16518,0,0,0,0,0,0,0,0,0,0
229,45600,32441,-12196,-20150,32073,-2579,-18263,0,0,0,0,0,0,0,0,0,0
230,45800,32085,-10262,-21721,31873,-2232,-19936,0,0,0,0,0,0,0,0,0,0
231,46000,31603,-8288,-23206,31548,-1875,-21530,0,0,0,0,0,0,0,0,0,0
232,46200,30995,-6281,-24600,31099,-1510,-23040,0,0,0,0,0,0,0,0,0,0
233,46400,30266,-4249,-25896,30526,-1139,-24458,0,0,0,0,0,0,0,0,0,0
234,46600,29417,-2201,-27091,29833,-764,-25780,0,0,0,0,0,0,0,0,0,0
235,46800,28452,-143,-28178,29023,-385,-27000,0,0,0,0,0,0,0,0,0,0
236,47000,27375,1914,-29154,28097,-3,-28114,0,0,0,0,0,0,0,0,0,0
237,47200,26190,3965,-30015,27061,378,-29116,0,0,0,0,0,0,0,0,0,0
238,47400,24901,5999,-30758,25918,758,-30004,0,0,0,0,0,0,0,0,0,0
239,47600,23514,8010,-31379,24673,1136,-30774,0,0,0,0,0,0,0,0,0,0
240,47800,22035,9989,-31877,23330,1510,-31421,0,0,0,0,0,0,0,0,0,0
241,48000,20468,11929,-32248,21895,1878,-31945,0,0,0,0,0,0,0,0,0,0
242,48200,18821,13822,-32493,20374,2239,-32343,0,0,0,0,0,0,0,0,0,0
243,48400,17099,15660,-32609,18772,2591,-32613,0,0,0,0,0,0,0,0,0,0
244,48600,15310,17436,-32596,17096,2934,-32755,0,0,0,0,0,0,0,0,0,0
245,48800,13460,19144,-32455,15353,3266,-32767,0,0,0,0,0,0,0,0,0,0
246,49000,11557,20776,-32186,13549,3585,-32650,0,0,0,0,0,0,0,0,0,0
247,49200,9609,22326,-31790,11691,3890,-32404,0,0,0,0,0,0,0,0,0,0
248,49400,7623,23788,-31268,9788,4180,-32030,0,0,0,0,0,0,0,0,0,0
249,49600,5607,25156,-30623,7845,4454,-31530,0,0,0,0,0,0,0,0,0,0
250,49800,3568,26425,-29857,5872,4711,-30905,0,0,0,0,0,0,0,0,0,0
251,50000,1516,27589,-28973,3875,4950,-30158,0,0,0,0,0,0,0,0,0,0
252,50200,-543,28645,-27975,1864,5170,-29293,0,0,0,0,0,0,0,0,0,0
253,50400,-2599,29587,-26867,-156,5369,-28311,0,0,0,0,0,0,0,0,0,0
254,50600,-4645,30413,-25653,-2174,5548,-27218,0,0,0,0,0,0,0,0,0,0
255,50800,-6673,31119,-24337,-4185,5705,-26018,0,0,0,0,0,0,0,0,0,0
256,51000,-8675,31702,-22925,-6178,5840,-24715,0,0,0,0,0,0,0,0,0,0
257,51200,-10642,32160,-21423,-8148,5953,-23314,0,0,0,0,0,0,0,0,0,0
258,51400,-12567,32491,-19836,-10085,6042,-21822,0,0,0,0,0,0,0,0,0,0
259,51600,-14443,32693,-18171,-11982,6108,-20243,0,0,0,0,0,0,0,0,0,0
260,51800,-16261,32767,-16434,-13833,6150,-18584,0,0,0,0,0,0,0,0,0,0
261,52000,-18016,32711,-14633,-15628,6168,-16852,0,0,0,0,0,0,0,0,0,0
262,52200,-19699,32527,-12774,-17362,6162,-15054,0,0,0,0,0,0,0,0,0,0
263,52400,-21305,32213,-10864,-19028,6133,-13196,0,0,0,0,0,0,0,0,0,0
264,52600,-22826,31773,-8911,-20618,6079,-11286,0,0,0,0,0,0,0,0,0,0
265,52800,-24258,31208,-6924,-22128,6002,-9331,0,0,0,0,0,0,0,0,0,0
266,53000,-25594,30519,-4909,-23549,5902,-7340,0,0,0,0,0,0,0,0,0,0
267,53200,-26828,29710,-2874,-24878,5778,-5319,0,0,0,0,0,0,0,0,0,0
268,53400,-27957,28783,-828,-26109,5633,-3278,0,0,0,0,0,0,0,0,0,0
269,53600,-28976,27743,1221,-27237,5465,-1224,0,0,0,0,0,0,0,0,0,0
270,53800,-29880,26593,3265,-28257,5276,835,0,0,0,0,0,0,0,0,0,0
271,54000,-30666,25339,5296,-29166,5067,2891,0,0,0,0,0,0,0,0,0,0
272,54200,-31331,23984,7306,-29960,4838,4936,0,0,0,0,0,0,0,0,0,0
273,54400,-31873,22535,9288,-30636,4591,6961,0,0,0,0,0,0,0,0,0,0
274,54600,-32288,20997,11233,-31191,4325,8958,0,0,0,0,0,0,0,0,0,0
275,54800,-32577,19376,13133,-31622,4043,10920,0,0,0,0,0,0,0,0,0,0
276,55000,-32736,17678,14982,-31929,3746,12839,0,0,0,0,0,0,0,0,0,0
277,55200,-32767,15911,16771,-32110,3434,14707,0,0,0,0,0,0,0,0,0,0
278,55400,-32668,14081,18495,-32164,3109,16518,0,0,0,0,0,0,0,0,0,0
279,55600,-32441,12196,20145,-32092,2772,18263,0,0,0,0,0,0,0,0,0,0
280,55800,-32085,10262,21716,-31893,2424,19936,0,0,0,0,0,0,0,0,0,0
281,56000,-31603,8288,23201,-31567,2067,21530,0,0,0,0,0,0,0,0,0,0
282,56200,-30995,6281,24594,-31118,1703,23040,0,0,0,0,0,0,0,0,0,0
283,56400,-30266,4249,25891,-30545,1332,24458,0,0,0,0,0,0,0,0,0,0
284,56600,-29417,2201,27085,-29853,956,25780,0,0,0,0,0,0,0,0,0,0
285,56800,-28452,143,28172,-29042,577,27000,0,0,0,0,0,0,0,0,0,0
286,57000,-27375,-1914,29149,-28117,196,28114,0,0,0,0,0,0,0,0,0,0
287,57200,-26190,-3965,30010,-27080,-186,29116,0,0,0,0,0,0,0,0,0,0
288,57400,-24901,-5999,30752,-25937,-566,30004,0,0,0,0,0,0,0,0,0,0
289,57600,-23514,-8010,31374,-24692,-944,30774,0,0,0,0,0,0,0,0,0,0
290,57800,-22035,-9989,31871,-23349,-1317,31421,0,0,0,0,0,0,0,0,0,0
